--- file type: CFG ---
SMARTSTATION,IED123,2013
8,4A,4D
1,IA ,,Line123, A,0.1138916015625,0.05694580078125,0,-32768,32767,933,1,s
2,IB ,,Line123, A,0.1138916015625,0.05694580078125,0,-32768,32767,933,1,s
3,IC ,,Line123, A,0.1138916015625,0.05694580078125,0,-32768,32767,933,1,s
4,3I0,,Line123, A,0.1138916015625,0.05694580078125,0,-32768,32767,933,1,s
1,51A,,Line123,0
2,51B,,Line123,0
3,51C,,Line123,0
4,51N,,Line123,0
60
1
1200,40
12/01/2011,05:55:30.75011
12/01/2011,05:55:30.78261
ASCII
1
-5h30,-5h30
B,3
--- file type: INF ---

--- file type: HDR ---

--- file type: DAT ASCII ---
1,72500,-83,68,7,-8,0,0,0,0
2,73333,-15,5,4,-6,0,0,0,0
3,74167,55,-53,0,2,0,0,0,0
4,75000,122,-96,-2,24,0,0,0,0
5,75833,182,-119,-7,56,0,0,0,0
6,76667,228,-121,-11,95,0,0,0,0
7,77500,260,-104,-14,142,0,0,0,0
8,78333,271,-68,-17,186,0,0,0,0
9,79167,260,-19,-18,223,0,0,0,0
10,80000,228,39,-19,248,0,0,0,0
11,80833,178,100,-19,260,0,0,0,1
12,81667,113,158,-16,255,0,0,0,1
13,82500,43,206,-12,236,0,0,0,1
14,83333,-30,236,-5,202,1,1,0,1
15,84167,-95,249,2,156,1,1,0,1
16,85000,-150,243,6,98,1,1,0,1
17,85833,-187,218,11,42,1,1,0,1
18,86667,-202,176,16,-10,1,1,0,1
19,87500,-195,123,18,-54,1,1,0,1
20,88333,-165,61,19,-85,1,1,0,1
21,89167,-118,-2,17,-103,1,1,0,1
22,90000,-57,-61,13,-106,1,1,0,1
23,90833,10,-110,9,-91,1,1,0,1
24,91667,78,-144,4,-62,1,1,0,1
25,92500,138,-159,-2,-23,1,1,0,1
26,93333,187,-159,-7,21,1,1,0,1
27,94167,219,-139,-11,69,1,1,0,1
28,95000,230,-105,-14,111,1,1,0,1
29,95833,221,-56,-16,149,1,1,0,1
30,96667,191,2,-17,176,1,1,0,1
31,97500,143,61,-15,189,1,1,0,1
32,98333,83,118,-13,188,1,1,0,1
33,99167,17,165,-9,172,1,1,0,1
34,100000,-50,197,-4,144,1,1,0,1
35,100833,-111,212,2,103,1,1,0,1
36,101667,-161,209,6,53,1,1,0,1
37,102500,-195,187,11,4,1,1,0,1
38,103333,-208,149,15,-44,1,1,0,1
39,104167,-199,99,17,-83,1,1,0,1
40,105000,-169,41,18,-110,1,1,0,1
